
T2FE0 000:001 SEGGER J-Link V6.16c Log File (0001ms, 0002ms total)
T2FE0 000:001 DLL Compiled: Jun 16 2017 18:14:49 (0001ms, 0002ms total)
T2FE0 000:001 Logging started @ 2020-07-01 09:44 (0001ms, 0002ms total)
T2FE0 000:002 JLINK_SetWarnOutHandler(...) (0000ms, 0002ms total)
T2FE0 000:002 JLINK_OpenEx(...)
Firmware: J-Link V9 compiled May 17 2019 09:50:41
Hardware: V9.40
S/N: 59425868
Feature(s): RDI, GDB, FlashDL, FlashBP, JFlash, RDDIWEBSRV Webserver running on local port 19080 (0013ms, 0015ms total)
T2FE0 000:002   returns O.K. (0013ms, 0015ms total)
T2FE0 000:015 JLINK_GetEmuCaps()  returns 0xB9FF7BBF (0000ms, 0015ms total)
T2FE0 000:015 JLINK_TIF_GetAvailable(...) (0000ms, 0015ms total)
T2FE0 000:015 JLINK_SetErrorOutHandler(...) (0000ms, 0015ms total)
T2FE0 000:015 JLINK_ExecCommand("ProjectFile = "E:\Code\EmbeddedSoftwareCode\Lider_Delta2A\Delta_2A_mcu_demo(STM32f103C8)\Keil\JLinkSettings.ini"", ...).   returns 0x00 (0071ms, 0086ms total)
T2FE0 000:086 JLINK_ExecCommand("Device = STM32F103C8", ...). Device "STM32F103C8" selected.  returns 0x00 (0000ms, 0086ms total)
T2FE0 000:086 JLINK_ExecCommand("DisableConnectionTimeout", ...).   returns 0x01 (0000ms, 0086ms total)
T2FE0 000:086 JLINK_GetHardwareVersion()  returns 0x16F30 (0000ms, 0086ms total)
T2FE0 000:086 JLINK_GetDLLVersion()  returns 61603 (0000ms, 0086ms total)
T2FE0 000:086 JLINK_GetFirmwareString(...) (0000ms, 0086ms total)
T2FE0 000:086 JLINK_GetDLLVersion()  returns 61603 (0000ms, 0086ms total)
T2FE0 000:086 JLINK_GetCompileDateTime() (0000ms, 0086ms total)
T2FE0 000:086 JLINK_GetFirmwareString(...) (0000ms, 0086ms total)
T2FE0 000:086 JLINK_GetHardwareVersion()  returns 0x16F30 (0000ms, 0086ms total)
T2FE0 000:087 JLINK_TIF_Select(JLINKARM_TIF_SWD)  returns 0x00 (0000ms, 0086ms total)
T2FE0 000:087 JLINK_SetSpeed(5000) (0000ms, 0086ms total)
T2FE0 000:087 JLINK_GetId() >0x10B TIF>Found SW-DP with ID 0x1BA01477 >0x0D TIF> >0x28 TIF> >0x0D TIF> >0x28 TIF> >0x0D TIF> >0x28 TIF> >0x0D TIF> >0x28 TIF> >0x0D TIF> >0x21 TIF> >0x0D TIF> >0x28 TIF> >0x0D TIF> >0x28 TIF> >0x0D TIF> >0x28 TIF> >0x0D TIF> >0x21 TIF> >0x0D TIF> >0x21 TIF> >0x0D TIF> >0x28 TIF> >0x0D TIF> >0x21 TIF> >0x0D TIF> >0x21 TIF> >0x0D TIF> >0x28 TIF> >0x0D TIF> >0x21 TIF> >0x0D TIF> >0x21 TIF> >0x0D TIF> >0x28 TIF> >0x0D TIF> >0x21 TIF> >0x0D TIF> >0x21 TIF> >0x0D TIF> >0x28 TIF>
 >0x0D TIF> >0x21 TIF> >0x0D TIF> >0x21 TIF> >0x0D TIF> >0x28 TIF> >0x0D TIF> >0x21 TIF> >0x0D TIF> >0x21 TIF> >0x0D TIF> >0x28 TIF> >0x0D TIF> >0x21 TIF> >0x0D TIF> >0x21 TIF> >0x10B TIF>Found SW-DP with ID 0x1BA01477 >0x0D TIF> >0x28 TIF> >0x0D TIF> >0x28 TIF> >0x0D TIF> >0x28 TIF> >0x0D TIF> >0x28 TIF> >0x0D TIF> >0x21 TIF> >0x0D TIF> >0x28 TIF>Scanning APs, stopping at first AHB-AP found. >0x0D TIF> >0x28 TIF> >0x0D TIF> >0x21 TIF> >0x0D TIF> >0x21 TIF>AP[0] IDR: 0x14770011 (AHB-AP) >0x0D TIF>
 >0x28 TIF> >0x0D TIF> >0x21 TIF> >0x0D TIF> >0x21 TIF>AHB-AP ROM: 0xE00FF000 (Base addr. of first ROM table) >0x0D TIF> >0x28 TIF> >0x0D TIF> >0x28 TIF> >0x0D TIF> >0x28 TIF> >0x0D TIF> >0x21 TIF> >0x0D TIF> >0x21 TIF> >0x0D TIF> >0x28 TIF> >0x0D TIF> >0x21 TIF> >0x0D TIF> >0x21 TIF>CPUID reg: 0x411FC231. Implementer code: 0x41 (ARM)Found Cortex-M3 r1p1, Little endian. -- CPU_ReadMem(4 bytes @ 0xE000EDF0) -- CPU_WriteMem(4 bytes @ 0xE000EDF0) -- CPU_ReadMem(4 bytes @ 0xE0002000)
FPUnit: 6 code (BP) slots and 2 literal slots -- CPU_ReadMem(4 bytes @ 0xE000EDFC) -- CPU_WriteMem(4 bytes @ 0xE000EDFC) -- CPU_ReadMem(4 bytes @ 0xE0001000) -- CPU_WriteMem(4 bytes @ 0xE0001000) -- CPU_ReadMem(4 bytes @ 0xE000ED88) -- CPU_WriteMem(4 bytes @ 0xE000ED88) -- CPU_ReadMem(4 bytes @ 0xE000ED88) -- CPU_WriteMem(4 bytes @ 0xE000ED88)CoreSight components:ROMTbl[0] @ E00FF000 -- CPU_ReadMem(16 bytes @ 0xE00FF000) -- CPU_ReadMem(16 bytes @ 0xE000EFF0) -- CPU_ReadMem(16 bytes @ 0xE000EFE0)
ROMTbl[0][0]: E000E000, CID: B105E00D, PID: 001BB000 SCS -- CPU_ReadMem(16 bytes @ 0xE0001FF0) -- CPU_ReadMem(16 bytes @ 0xE0001FE0)ROMTbl[0][1]: E0001000, CID: B105E00D, PID: 001BB002 DWT -- CPU_ReadMem(16 bytes @ 0xE0002FF0) -- CPU_ReadMem(16 bytes @ 0xE0002FE0)ROMTbl[0][2]: E0002000, CID: B105E00D, PID: 000BB003 FPB -- CPU_ReadMem(16 bytes @ 0xE0000FF0) -- CPU_ReadMem(16 bytes @ 0xE0000FE0)ROMTbl[0][3]: E0000000, CID: B105E00D, PID: 001BB001 ITM -- CPU_ReadMem(16 bytes @ 0xE00FF010)
 -- CPU_ReadMem(16 bytes @ 0xE0040FF0) -- CPU_ReadMem(16 bytes @ 0xE0040FE0)ROMTbl[0][4]: E0040000, CID: B105900D, PID: 001BB923 TPIU-Lite >0x0D TIF> >0x21 TIF>  returns 0x1BA01477 (0033ms, 0119ms total)
T2FE0 000:120 JLINK_GetDLLVersion()  returns 61603 (0000ms, 0119ms total)
T2FE0 000:120 JLINK_CORE_GetFound()  returns 0x30000FF (0000ms, 0119ms total)
T2FE0 000:120 JLINK_GetDebugInfo(0x100 = JLINKARM_ROM_TABLE_ADDR_INDEX) -- Value=0xE00FF000  returns 0x00 (0000ms, 0119ms total)
T2FE0 000:120 JLINK_GetDebugInfo(0x100 = JLINKARM_ROM_TABLE_ADDR_INDEX) -- Value=0xE00FF000  returns 0x00 (0000ms, 0119ms total)
T2FE0 000:120 JLINK_GetDebugInfo(0x101 = JLINKARM_DEBUG_INFO_ETM_ADDR_INDEX) -- Value=0x00000000  returns 0x00 (0000ms, 0119ms total)
T2FE0 000:120 JLINK_ReadMemEx(0xE0041FF0, 0x0010 Bytes, ..., Flags = 0x02000004) -- CPU_ReadMem(16 bytes @ 0xE0041FF0) - Data: 00 00 00 00 00 00 00 00 00 00 00 00 00 00 00 00  returns 0x10 (0001ms, 0120ms total)
T2FE0 000:121 JLINK_GetDebugInfo(0x102 = JLINKARM_DEBUG_INFO_MTB_ADDR_INDEX) -- Value=0x00000000  returns 0x00 (0000ms, 0120ms total)
T2FE0 000:121 JLINK_GetDebugInfo(0x103 = JLINKARM_DEBUG_INFO_TPIU_ADDR_INDEX) -- Value=0xE0040000  returns 0x00 (0000ms, 0120ms total)
T2FE0 000:121 JLINK_GetDebugInfo(0x104 = JLINKARM_DEBUG_INFO_ITM_ADDR_INDEX) -- Value=0xE0000000  returns 0x00 (0000ms, 0120ms total)
T2FE0 000:121 JLINK_GetDebugInfo(0x105 = JLINKARM_DEBUG_INFO_DWT_ADDR_INDEX) -- Value=0xE0001000  returns 0x00 (0000ms, 0120ms total)
T2FE0 000:121 JLINK_GetDebugInfo(0x106 = JLINKARM_DEBUG_INFO_FPB_ADDR_INDEX) -- Value=0xE0002000  returns 0x00 (0000ms, 0120ms total)
T2FE0 000:121 JLINK_GetDebugInfo(0x107 = JLINKARM_DEBUG_INFO_NVIC_ADDR_INDEX) -- Value=0xE000E000  returns 0x00 (0000ms, 0120ms total)
T2FE0 000:121 JLINK_GetDebugInfo(0x10C = JLINKARM_DEBUG_INFO_DBG_ADDR_INDEX) -- Value=0xE000EDF0  returns 0x00 (0000ms, 0120ms total)
T2FE0 000:121 JLINK_ReadMemU32(0xE000ED00, 0x0001 Items, ...) -- CPU_ReadMem(4 bytes @ 0xE000ED00) - Data: 31 C2 1F 41  returns 0x01 (0000ms, 0120ms total)
T2FE0 000:121 JLINK_GetDebugInfo(0x10F = JLINKARM_DEBUG_INFO_HAS_CORTEX_M_SECURITY_EXT_INDEX) -- Value=0x00000000  returns 0x00 (0000ms, 0120ms total)
T2FE0 000:121 JLINK_SetResetType(JLINKARM_CM3_RESET_TYPE_NORMAL)  returns JLINKARM_CM3_RESET_TYPE_NORMAL (0000ms, 0120ms total)
T2FE0 000:121 JLINK_Reset() -- CPU is running -- CPU_WriteMem(4 bytes @ 0xE000EDF0) -- CPU is running -- CPU_WriteMem(4 bytes @ 0xE000EDFC) >0x35 TIF>Setting AIRCR.SYSRESETREQ -- CPU is running -- CPU_WriteMem(4 bytes @ 0xE000ED0C) >0x0D TIF> >0x28 TIF> -- CPU_ReadMem(4 bytes @ 0xE000ED0C) -- CPU_ReadMem(4 bytes @ 0xE000EDF0) -- CPU_ReadMem(4 bytes @ 0xE000EDF0) -- CPU_ReadMem(4 bytes @ 0xE000EDF0) -- CPU is running -- CPU_WriteMem(4 bytes @ 0xE000EDF0) -- CPU is running
 -- CPU_WriteMem(4 bytes @ 0xE000EDFC) -- CPU_ReadMem(4 bytes @ 0xE000EDF0) -- CPU_WriteMem(4 bytes @ 0xE0002000) -- CPU_ReadMem(4 bytes @ 0xE000EDFC) -- CPU_ReadMem(4 bytes @ 0xE0001000) (0066ms, 0186ms total)
T2FE0 000:187 JLINK_ReadReg(R15 (PC))  returns 0x08000100 (0000ms, 0186ms total)
T2FE0 000:187 JLINK_ReadReg(XPSR)  returns 0x01000000 (0000ms, 0186ms total)
T2FE0 000:187 JLINK_Halt()  returns 0x00 (0000ms, 0186ms total)
T2FE0 000:187 JLINK_ReadMemU32(0xE000EDF0, 0x0001 Items, ...) -- CPU_ReadMem(4 bytes @ 0xE000EDF0) - Data: 03 00 03 00  returns 0x01 (0001ms, 0187ms total)
T2FE0 000:188 JLINK_WriteU32(0xE000EDF0, 0xA05F0003) -- CPU_WriteMem(4 bytes @ 0xE000EDF0)  returns 0x00 (0000ms, 0187ms total)
T2FE0 000:188 JLINK_WriteU32(0xE000EDFC, 0x01000000) -- CPU_WriteMem(4 bytes @ 0xE000EDFC)  returns 0x00 (0000ms, 0187ms total)
T2FE0 000:188 JLINK_GetHWStatus(...)  returns 0x00 (0001ms, 0188ms total)
T2FE0 000:189 JLINK_GetNumBPUnits(Type = 0xFFFFFF00)  returns 0x06 (0000ms, 0188ms total)
T2FE0 000:189 JLINK_GetNumBPUnits(Type = 0xF0)  returns 0x2000 (0000ms, 0188ms total)
T2FE0 000:189 JLINK_GetNumWPUnits()  returns 0x04 (0000ms, 0188ms total)
T2FE0 000:189 JLINK_GetSpeed()  returns 0xFA0 (0000ms, 0188ms total)
T2FE0 000:189 JLINK_ReadMemU32(0xE000E004, 0x0001 Items, ...) -- CPU_ReadMem(4 bytes @ 0xE000E004) - Data: 01 00 00 00  returns 0x01 (0000ms, 0188ms total)
T2FE0 000:189 JLINK_ReadMemU32(0xE000E004, 0x0001 Items, ...) -- CPU_ReadMem(4 bytes @ 0xE000E004) - Data: 01 00 00 00  returns 0x01 (0000ms, 0188ms total)
T2FE0 000:189 JLINK_WriteMemEx(0xE0001000, 0x001C Bytes, ..., Flags = 0x02000004) - Data: 01 00 00 00 00 00 00 00 00 00 00 00 00 00 00 00 ... -- CPU_WriteMem(28 bytes @ 0xE0001000)  returns 0x1C (0001ms, 0189ms total)
T2FE0 000:190 JLINK_ReadReg(R15 (PC))  returns 0x08000100 (0000ms, 0189ms total)
T2FE0 000:190 JLINK_ReadReg(XPSR)  returns 0x01000000 (0000ms, 0189ms total)
T2FE0 000:260 JLINK_SetResetType(JLINKARM_CM3_RESET_TYPE_NORMAL)  returns JLINKARM_CM3_RESET_TYPE_NORMAL (0000ms, 0189ms total)
T2FE0 000:260 JLINK_Reset() -- CPU_WriteMem(4 bytes @ 0xE000EDF0) -- CPU_WriteMem(4 bytes @ 0xE000EDFC) >0x35 TIF>Setting AIRCR.SYSRESETREQ -- CPU_WriteMem(4 bytes @ 0xE000ED0C) >0x0D TIF> >0x28 TIF> -- CPU_ReadMem(4 bytes @ 0xE000ED0C) -- CPU_ReadMem(4 bytes @ 0xE000EDF0) -- CPU_ReadMem(4 bytes @ 0xE000EDF0) -- CPU_ReadMem(4 bytes @ 0xE000EDF0) -- CPU_WriteMem(4 bytes @ 0xE000EDF0) -- CPU_WriteMem(4 bytes @ 0xE000EDFC) -- CPU_ReadMem(4 bytes @ 0xE000EDF0) -- CPU_WriteMem(4 bytes @ 0xE0002000)
 -- CPU_ReadMem(4 bytes @ 0xE000EDFC) -- CPU_ReadMem(4 bytes @ 0xE0001000) (0066ms, 0255ms total)
T2FE0 000:326 JLINK_ReadReg(R15 (PC))  returns 0x08000100 (0000ms, 0255ms total)
T2FE0 000:326 JLINK_ReadReg(XPSR)  returns 0x01000000 (0000ms, 0255ms total)
T2FE0 000:326 JLINK_ReadReg(R0)  returns 0x00000000 (0000ms, 0255ms total)
T2FE0 000:326 JLINK_ReadReg(R1)  returns 0x00000000 (0000ms, 0255ms total)
T2FE0 000:326 JLINK_ReadReg(R2)  returns 0x00000020 (0000ms, 0255ms total)
T2FE0 000:326 JLINK_ReadReg(R3)  returns 0x00000003 (0000ms, 0255ms total)
T2FE0 000:326 JLINK_ReadReg(R4)  returns 0x20000018 (0000ms, 0255ms total)
T2FE0 000:326 JLINK_ReadReg(R5)  returns 0x00000000 (0000ms, 0255ms total)
T2FE0 000:326 JLINK_ReadReg(R6)  returns 0x00000000 (0000ms, 0255ms total)
T2FE0 000:326 JLINK_ReadReg(R7)  returns 0x00000000 (0000ms, 0255ms total)
T2FE0 000:326 JLINK_ReadReg(R8)  returns 0x00000000 (0000ms, 0255ms total)
T2FE0 000:326 JLINK_ReadReg(R9)  returns 0x20000160 (0000ms, 0255ms total)
T2FE0 000:326 JLINK_ReadReg(R10)  returns 0x00000000 (0000ms, 0255ms total)
T2FE0 000:326 JLINK_ReadReg(R11)  returns 0x00000000 (0000ms, 0255ms total)
T2FE0 000:326 JLINK_ReadReg(R12)  returns 0x0000000F (0000ms, 0255ms total)
T2FE0 000:326 JLINK_ReadReg(R13 (SP))  returns 0x20003CA8 (0000ms, 0255ms total)
T2FE0 000:326 JLINK_ReadReg(R14)  returns 0xFFFFFFFF (0000ms, 0255ms total)
T2FE0 000:326 JLINK_ReadReg(R15 (PC))  returns 0x08000100 (0000ms, 0255ms total)
T2FE0 000:326 JLINK_ReadReg(XPSR)  returns 0x01000000 (0000ms, 0255ms total)
T2FE0 000:326 JLINK_ReadReg(MSP)  returns 0x20003CA8 (0000ms, 0255ms total)
T2FE0 000:326 JLINK_ReadReg(PSP)  returns 0x20001000 (0000ms, 0255ms total)
T2FE0 000:326 JLINK_ReadReg(CFBP)  returns 0x00000000 (0000ms, 0255ms total)
T2FE0 000:326 JLINK_ReadMemU32(0xE0001004, 0x0001 Items, ...) - Data: 00 00 00 00  returns 0x01 (0000ms, 0255ms total)
T2FE0 000:467 JLINK_ReadMemEx(0x08000100, 0x003C Bytes, ..., Flags = 0x02000000) -- CPU_ReadMem(64 bytes @ 0x08000100) -- Updating C cache (64 bytes @ 0x08000100) -- Read from C cache (60 bytes @ 0x08000100) - Data: 06 48 80 47 06 48 00 47 FE E7 FE E7 FE E7 FE E7 ...  returns 0x3C (0001ms, 0256ms total)
T0E00 001:398 JLINK_ReadMemEx(0x08000100, 0x0002 Bytes, ..., Flags = 0x02000000) -- Read from C cache (2 bytes @ 0x08000100) - Data: 06 48  returns 0x02 (0000ms, 0256ms total)
T0E00 001:398 JLINK_SetBPEx(Addr = 0x08001C30, Type = 0xFFFFFFF2)  returns 0x00000001 (0000ms, 0256ms total)
T0E00 001:398 JLINK_Go() -- CPU_WriteMem(4 bytes @ 0xE0002000) -- CPU_ReadMem(4 bytes @ 0xE0001000) -- CPU_WriteMem(4 bytes @ 0xE0002008) -- CPU_WriteMem(4 bytes @ 0xE000200C) -- CPU_WriteMem(4 bytes @ 0xE0002010) -- CPU_WriteMem(4 bytes @ 0xE0002014) -- CPU_WriteMem(4 bytes @ 0xE0002018) -- CPU_WriteMem(4 bytes @ 0xE000201C) -- CPU_WriteMem(4 bytes @ 0xE0001004) (0004ms, 0260ms total)
T0E00 001:502 JLINK_IsHalted()  returns TRUE (0003ms, 0263ms total)
T0E00 001:505 JLINK_Halt()  returns 0x00 (0000ms, 0260ms total)
T0E00 001:505 JLINK_IsHalted()  returns TRUE (0000ms, 0260ms total)
T0E00 001:505 JLINK_IsHalted()  returns TRUE (0000ms, 0260ms total)
T0E00 001:505 JLINK_IsHalted()  returns TRUE (0000ms, 0260ms total)
T0E00 001:505 JLINK_ReadReg(R15 (PC))  returns 0x08001C30 (0000ms, 0260ms total)
T0E00 001:505 JLINK_ReadReg(XPSR)  returns 0x61000000 (0000ms, 0260ms total)
T0E00 001:505 JLINK_ClrBPEx(BPHandle = 0x00000001)  returns 0x00 (0000ms, 0260ms total)
T0E00 001:505 JLINK_ReadMemU32(0xE000ED30, 0x0001 Items, ...) -- CPU_ReadMem(4 bytes @ 0xE000ED30) - Data: 02 00 00 00  returns 0x01 (0000ms, 0260ms total)
T0E00 001:505 JLINK_ReadMemU32(0xE0001028, 0x0001 Items, ...) -- CPU_ReadMem(4 bytes @ 0xE0001028) - Data: 00 00 00 00  returns 0x01 (0000ms, 0260ms total)
T0E00 001:505 JLINK_ReadMemU32(0xE0001038, 0x0001 Items, ...) -- CPU_ReadMem(4 bytes @ 0xE0001038) - Data: 00 02 00 00  returns 0x01 (0001ms, 0261ms total)
T0E00 001:506 JLINK_ReadMemU32(0xE0001048, 0x0001 Items, ...) -- CPU_ReadMem(4 bytes @ 0xE0001048) - Data: 00 00 00 00  returns 0x01 (0000ms, 0261ms total)
T0E00 001:506 JLINK_ReadMemU32(0xE0001058, 0x0001 Items, ...) -- CPU_ReadMem(4 bytes @ 0xE0001058) - Data: 00 00 00 00  returns 0x01 (0000ms, 0261ms total)
T0E00 001:506 JLINK_ReadReg(R0)  returns 0x08001C31 (0000ms, 0261ms total)
T0E00 001:506 JLINK_ReadReg(R1)  returns 0x20003CA8 (0001ms, 0262ms total)
T0E00 001:507 JLINK_ReadReg(R2)  returns 0x00000000 (0000ms, 0262ms total)
T0E00 001:507 JLINK_ReadReg(R3)  returns 0x080012F9 (0000ms, 0262ms total)
T0E00 001:507 JLINK_ReadReg(R4)  returns 0x08001CE8 (0000ms, 0262ms total)
T0E00 001:507 JLINK_ReadReg(R5)  returns 0x08001CE8 (0000ms, 0262ms total)
T0E00 001:507 JLINK_ReadReg(R6)  returns 0x00000000 (0000ms, 0262ms total)
T0E00 001:507 JLINK_ReadReg(R7)  returns 0x00000000 (0000ms, 0262ms total)
T0E00 001:507 JLINK_ReadReg(R8)  returns 0x00000000 (0000ms, 0262ms total)
T0E00 001:507 JLINK_ReadReg(R9)  returns 0x20000160 (0000ms, 0262ms total)
T0E00 001:507 JLINK_ReadReg(R10)  returns 0x00000000 (0000ms, 0262ms total)
T0E00 001:507 JLINK_ReadReg(R11)  returns 0x00000000 (0000ms, 0262ms total)
T0E00 001:507 JLINK_ReadReg(R12)  returns 0x0000000F (0000ms, 0262ms total)
T0E00 001:507 JLINK_ReadReg(R13 (SP))  returns 0x20003CA8 (0000ms, 0262ms total)
T0E00 001:507 JLINK_ReadReg(R14)  returns 0x080007BD (0000ms, 0262ms total)
T0E00 001:507 JLINK_ReadReg(R15 (PC))  returns 0x08001C30 (0000ms, 0262ms total)
T0E00 001:507 JLINK_ReadReg(XPSR)  returns 0x61000000 (0000ms, 0262ms total)
T0E00 001:507 JLINK_ReadReg(MSP)  returns 0x20003CA8 (0000ms, 0262ms total)
T0E00 001:507 JLINK_ReadReg(PSP)  returns 0x20001000 (0000ms, 0262ms total)
T0E00 001:507 JLINK_ReadReg(CFBP)  returns 0x00000000 (0000ms, 0262ms total)
T2FE0 001:507 JLINK_ReadMemEx(0x00000000, 0x0002 Bytes, ..., Flags = 0x02000000) -- CPU_ReadMem(4 bytes @ 0x00000004) -- CPU_ReadMem(64 bytes @ 0x08000000) -- Updating C cache (64 bytes @ 0x08000000) -- Read from C cache (2 bytes @ 0x08000000) - Data: A8 3C  returns 0x02 (0001ms, 0263ms total)
T2FE0 001:511 JLINK_ReadMemU32(0xE0001004, 0x0001 Items, ...) -- CPU_ReadMem(4 bytes @ 0xE0001004) - Data: A4 A2 00 00  returns 0x01 (0001ms, 0264ms total)
T2FE0 001:516 JLINK_ReadMemEx(0x08001C30, 0x003C Bytes, ..., Flags = 0x02000000) -- CPU_ReadMem(128 bytes @ 0x08001C00) -- Updating C cache (128 bytes @ 0x08001C00) -- Read from C cache (60 bytes @ 0x08001C30) - Data: 4F F4 A0 60 FE F7 E4 FF 4F F4 E1 30 FF F7 02 FA ...  returns 0x3C (0001ms, 0265ms total)
T0E00 008:204 JLINK_ReadMemEx(0x08001C30, 0x0002 Bytes, ..., Flags = 0x02000000) -- Read from C cache (2 bytes @ 0x08001C30) - Data: 4F F4  returns 0x02 (0000ms, 0265ms total)
T0E00 008:204 JLINK_SetBPEx(Addr = 0x08001C48, Type = 0xFFFFFFF2)  returns 0x00000002 (0000ms, 0265ms total)
T0E00 008:204 JLINK_Go() -- CPU_WriteMem(4 bytes @ 0xE0002000) -- CPU_ReadMem(4 bytes @ 0xE0001000) -- CPU_WriteMem(4 bytes @ 0xE0002008) (0002ms, 0267ms total)
T0E00 008:306 JLINK_IsHalted()  returns TRUE (0003ms, 0270ms total)
T0E00 008:309 JLINK_Halt()  returns 0x00 (0000ms, 0267ms total)
T0E00 008:309 JLINK_IsHalted()  returns TRUE (0000ms, 0267ms total)
T0E00 008:309 JLINK_IsHalted()  returns TRUE (0000ms, 0267ms total)
T0E00 008:309 JLINK_IsHalted()  returns TRUE (0000ms, 0267ms total)
T0E00 008:309 JLINK_ReadReg(R15 (PC))  returns 0x08001C48 (0000ms, 0267ms total)
T0E00 008:309 JLINK_ReadReg(XPSR)  returns 0x41000000 (0000ms, 0267ms total)
T0E00 008:309 JLINK_ClrBPEx(BPHandle = 0x00000002)  returns 0x00 (0000ms, 0267ms total)
T0E00 008:309 JLINK_ReadMemU32(0xE000ED30, 0x0001 Items, ...) -- CPU_ReadMem(4 bytes @ 0xE000ED30) - Data: 02 00 00 00  returns 0x01 (0000ms, 0267ms total)
T0E00 008:309 JLINK_ReadMemU32(0xE0001028, 0x0001 Items, ...) -- CPU_ReadMem(4 bytes @ 0xE0001028) - Data: 00 00 00 00  returns 0x01 (0001ms, 0268ms total)
T0E00 008:310 JLINK_ReadMemU32(0xE0001038, 0x0001 Items, ...) -- CPU_ReadMem(4 bytes @ 0xE0001038) - Data: 00 02 00 00  returns 0x01 (0000ms, 0268ms total)
T0E00 008:310 JLINK_ReadMemU32(0xE0001048, 0x0001 Items, ...) -- CPU_ReadMem(4 bytes @ 0xE0001048) - Data: 00 00 00 00  returns 0x01 (0000ms, 0268ms total)
T0E00 008:310 JLINK_ReadMemU32(0xE0001058, 0x0001 Items, ...) -- CPU_ReadMem(4 bytes @ 0xE0001058) - Data: 00 00 00 00  returns 0x01 (0001ms, 0269ms total)
T0E00 008:311 JLINK_ReadReg(R0)  returns 0x20000018 (0000ms, 0269ms total)
T0E00 008:311 JLINK_ReadReg(R1)  returns 0x00000000 (0000ms, 0269ms total)
T0E00 008:311 JLINK_ReadReg(R2)  returns 0x00000020 (0000ms, 0269ms total)
T0E00 008:311 JLINK_ReadReg(R3)  returns 0x00000003 (0000ms, 0269ms total)
T0E00 008:311 JLINK_ReadReg(R4)  returns 0x20000018 (0000ms, 0269ms total)
T0E00 008:311 JLINK_ReadReg(R5)  returns 0x00000000 (0000ms, 0269ms total)
T0E00 008:311 JLINK_ReadReg(R6)  returns 0x00000000 (0000ms, 0269ms total)
T0E00 008:311 JLINK_ReadReg(R7)  returns 0x00000000 (0000ms, 0269ms total)
T0E00 008:311 JLINK_ReadReg(R8)  returns 0x00000000 (0000ms, 0269ms total)
T0E00 008:311 JLINK_ReadReg(R9)  returns 0x20000160 (0000ms, 0269ms total)
T0E00 008:311 JLINK_ReadReg(R10)  returns 0x00000000 (0000ms, 0269ms total)
T0E00 008:311 JLINK_ReadReg(R11)  returns 0x00000000 (0000ms, 0269ms total)
T0E00 008:311 JLINK_ReadReg(R12)  returns 0x0000000F (0000ms, 0269ms total)
T0E00 008:311 JLINK_ReadReg(R13 (SP))  returns 0x20003CA8 (0000ms, 0269ms total)
T0E00 008:311 JLINK_ReadReg(R14)  returns 0x08001C45 (0000ms, 0269ms total)
T0E00 008:311 JLINK_ReadReg(R15 (PC))  returns 0x08001C48 (0000ms, 0269ms total)
T0E00 008:311 JLINK_ReadReg(XPSR)  returns 0x41000000 (0000ms, 0269ms total)
T0E00 008:311 JLINK_ReadReg(MSP)  returns 0x20003CA8 (0000ms, 0269ms total)
T0E00 008:311 JLINK_ReadReg(PSP)  returns 0x20001000 (0000ms, 0269ms total)
T0E00 008:311 JLINK_ReadReg(CFBP)  returns 0x00000000 (0000ms, 0269ms total)
T2FE0 008:311 JLINK_ReadMemEx(0x00000000, 0x0002 Bytes, ..., Flags = 0x02000000) -- CPU_ReadMem(4 bytes @ 0x00000004) -- CPU_ReadMem(64 bytes @ 0x08000000) -- Updating C cache (64 bytes @ 0x08000000) -- Read from C cache (2 bytes @ 0x08000000) - Data: A8 3C  returns 0x02 (0001ms, 0270ms total)
T2FE0 008:312 JLINK_ReadMemU32(0xE0001004, 0x0001 Items, ...) -- CPU_ReadMem(4 bytes @ 0xE0001004) - Data: 49 A7 00 00  returns 0x01 (0001ms, 0271ms total)
T2FE0 008:317 JLINK_ReadMemEx(0x08001C48, 0x003C Bytes, ..., Flags = 0x02000000) -- CPU_ReadMem(128 bytes @ 0x08001C40) -- Updating C cache (128 bytes @ 0x08001C40) -- Read from C cache (60 bytes @ 0x08001C48) - Data: FF F7 24 F8 60 78 01 28 FA D1 65 70 B4 F8 07 10 ...  returns 0x3C (0001ms, 0272ms total)
T0E00 014:586 JLINK_ReadMemEx(0x08001C48, 0x0002 Bytes, ..., Flags = 0x02000000) -- Read from C cache (2 bytes @ 0x08001C48) - Data: FF F7  returns 0x02 (0000ms, 0272ms total)
T0E00 014:586 JLINK_Step() -- Read from C cache (2 bytes @ 0x08001C48) -- CPU_ReadMem(4 bytes @ 0xE000ED18) -- CPU_WriteMem(4 bytes @ 0xE000ED18) -- CPU_ReadMem(4 bytes @ 0xE000ED18) -- CPU_WriteMem(4 bytes @ 0xE000ED18) -- Read from C cache (2 bytes @ 0x08001C4A) -- Simulated  returns 0x00 (0002ms, 0274ms total)
T0E00 014:588 JLINK_ReadReg(R15 (PC))  returns 0x08000C94 (0000ms, 0274ms total)
T0E00 014:588 JLINK_ReadReg(XPSR)  returns 0x41000000 (0000ms, 0274ms total)
T0E00 014:588 JLINK_SetBPEx(Addr = 0x08001C48, Type = 0xFFFFFFF2)  returns 0x00000003 (0000ms, 0274ms total)
T0E00 014:588 JLINK_Go() -- CPU_WriteMem(4 bytes @ 0xE0002000) -- CPU_ReadMem(4 bytes @ 0xE0001000) -- CPU_WriteMem(4 bytes @ 0xE0001004) (0002ms, 0276ms total)
T0E00 014:691 JLINK_IsHalted()  returns TRUE (0003ms, 0279ms total)
T0E00 014:694 JLINK_Halt()  returns 0x00 (0000ms, 0276ms total)
T0E00 014:694 JLINK_IsHalted()  returns TRUE (0000ms, 0276ms total)
T0E00 014:694 JLINK_IsHalted()  returns TRUE (0000ms, 0276ms total)
T0E00 014:694 JLINK_IsHalted()  returns TRUE (0000ms, 0276ms total)
T0E00 014:694 JLINK_ReadReg(R15 (PC))  returns 0x08001C48 (0000ms, 0276ms total)
T0E00 014:694 JLINK_ReadReg(XPSR)  returns 0x81000000 (0000ms, 0276ms total)
T0E00 014:694 JLINK_ClrBPEx(BPHandle = 0x00000003)  returns 0x00 (0000ms, 0276ms total)
T0E00 014:694 JLINK_ReadMemU32(0xE000ED30, 0x0001 Items, ...) -- CPU_ReadMem(4 bytes @ 0xE000ED30) - Data: 02 00 00 00  returns 0x01 (0000ms, 0276ms total)
T0E00 014:694 JLINK_ReadMemU32(0xE0001028, 0x0001 Items, ...) -- CPU_ReadMem(4 bytes @ 0xE0001028) - Data: 00 00 00 00  returns 0x01 (0001ms, 0277ms total)
T0E00 014:695 JLINK_ReadMemU32(0xE0001038, 0x0001 Items, ...) -- CPU_ReadMem(4 bytes @ 0xE0001038) - Data: 00 02 00 00  returns 0x01 (0000ms, 0277ms total)
T0E00 014:695 JLINK_ReadMemU32(0xE0001048, 0x0001 Items, ...) -- CPU_ReadMem(4 bytes @ 0xE0001048) - Data: 00 00 00 00  returns 0x01 (0001ms, 0278ms total)
T0E00 014:696 JLINK_ReadMemU32(0xE0001058, 0x0001 Items, ...) -- CPU_ReadMem(4 bytes @ 0xE0001058) - Data: 00 00 00 00  returns 0x01 (0000ms, 0278ms total)
T0E00 014:696 JLINK_ReadReg(R0)  returns 0x00000000 (0000ms, 0278ms total)
T0E00 014:696 JLINK_ReadReg(R1)  returns 0x00000000 (0000ms, 0278ms total)
T0E00 014:696 JLINK_ReadReg(R2)  returns 0x00000020 (0000ms, 0278ms total)
T0E00 014:696 JLINK_ReadReg(R3)  returns 0x00000003 (0000ms, 0278ms total)
T0E00 014:696 JLINK_ReadReg(R4)  returns 0x20000018 (0000ms, 0278ms total)
T0E00 014:696 JLINK_ReadReg(R5)  returns 0x00000000 (0000ms, 0278ms total)
T0E00 014:696 JLINK_ReadReg(R6)  returns 0x00000000 (0000ms, 0278ms total)
T0E00 014:696 JLINK_ReadReg(R7)  returns 0x00000000 (0000ms, 0278ms total)
T0E00 014:696 JLINK_ReadReg(R8)  returns 0x00000000 (0000ms, 0278ms total)
T0E00 014:696 JLINK_ReadReg(R9)  returns 0x20000160 (0000ms, 0278ms total)
T0E00 014:696 JLINK_ReadReg(R10)  returns 0x00000000 (0000ms, 0278ms total)
T0E00 014:696 JLINK_ReadReg(R11)  returns 0x00000000 (0000ms, 0278ms total)
T0E00 014:696 JLINK_ReadReg(R12)  returns 0x0000000F (0000ms, 0278ms total)
T0E00 014:696 JLINK_ReadReg(R13 (SP))  returns 0x20003CA8 (0000ms, 0278ms total)
T0E00 014:696 JLINK_ReadReg(R14)  returns 0x08001C4D (0000ms, 0278ms total)
T0E00 014:696 JLINK_ReadReg(R15 (PC))  returns 0x08001C48 (0000ms, 0278ms total)
T0E00 014:696 JLINK_ReadReg(XPSR)  returns 0x81000000 (0000ms, 0278ms total)
T0E00 014:696 JLINK_ReadReg(MSP)  returns 0x20003CA8 (0000ms, 0278ms total)
T0E00 014:696 JLINK_ReadReg(PSP)  returns 0x20001000 (0000ms, 0278ms total)
T0E00 014:696 JLINK_ReadReg(CFBP)  returns 0x00000000 (0000ms, 0278ms total)
T2FE0 014:696 JLINK_ReadMemEx(0x00000000, 0x0002 Bytes, ..., Flags = 0x02000000) -- CPU_ReadMem(4 bytes @ 0x00000004) -- CPU_ReadMem(64 bytes @ 0x08000000) -- Updating C cache (64 bytes @ 0x08000000) -- Read from C cache (2 bytes @ 0x08000000) - Data: A8 3C  returns 0x02 (0002ms, 0280ms total)
T2FE0 014:698 JLINK_ReadMemU32(0xE0001004, 0x0001 Items, ...) -- CPU_ReadMem(4 bytes @ 0xE0001004) - Data: 69 A7 00 00  returns 0x01 (0000ms, 0280ms total)
T0E00 016:056 JLINK_ReadMemEx(0x08001C48, 0x0002 Bytes, ..., Flags = 0x02000000) -- CPU_ReadMem(64 bytes @ 0x08001C40) -- Updating C cache (64 bytes @ 0x08001C40) -- Read from C cache (2 bytes @ 0x08001C48) - Data: FF F7  returns 0x02 (0001ms, 0281ms total)
T0E00 016:057 JLINK_Step() -- Read from C cache (2 bytes @ 0x08001C48) -- Read from C cache (2 bytes @ 0x08001C4A) -- Simulated  returns 0x00 (0000ms, 0281ms total)
T0E00 016:057 JLINK_ReadReg(R15 (PC))  returns 0x08000C94 (0000ms, 0281ms total)
T0E00 016:057 JLINK_ReadReg(XPSR)  returns 0x81000000 (0000ms, 0281ms total)
T0E00 016:057 JLINK_SetBPEx(Addr = 0x08001C48, Type = 0xFFFFFFF2)  returns 0x00000004 (0000ms, 0281ms total)
T0E00 016:057 JLINK_Go() -- CPU_WriteMem(4 bytes @ 0xE0002000) -- CPU_ReadMem(4 bytes @ 0xE0001000) -- CPU_WriteMem(4 bytes @ 0xE0001004) (0002ms, 0283ms total)
T0E00 016:159 JLINK_IsHalted()  returns TRUE (0003ms, 0286ms total)
T0E00 016:162 JLINK_Halt()  returns 0x00 (0000ms, 0283ms total)
T0E00 016:162 JLINK_IsHalted()  returns TRUE (0000ms, 0283ms total)
T0E00 016:162 JLINK_IsHalted()  returns TRUE (0000ms, 0283ms total)
T0E00 016:162 JLINK_IsHalted()  returns TRUE (0000ms, 0283ms total)
T0E00 016:162 JLINK_ReadReg(R15 (PC))  returns 0x08001C48 (0000ms, 0283ms total)
T0E00 016:162 JLINK_ReadReg(XPSR)  returns 0x81000000 (0000ms, 0283ms total)
T0E00 016:162 JLINK_ClrBPEx(BPHandle = 0x00000004)  returns 0x00 (0000ms, 0283ms total)
T0E00 016:162 JLINK_ReadMemU32(0xE000ED30, 0x0001 Items, ...) -- CPU_ReadMem(4 bytes @ 0xE000ED30) - Data: 02 00 00 00  returns 0x01 (0000ms, 0283ms total)
T0E00 016:162 JLINK_ReadMemU32(0xE0001028, 0x0001 Items, ...) -- CPU_ReadMem(4 bytes @ 0xE0001028) - Data: 00 00 00 00  returns 0x01 (0001ms, 0284ms total)
T0E00 016:163 JLINK_ReadMemU32(0xE0001038, 0x0001 Items, ...) -- CPU_ReadMem(4 bytes @ 0xE0001038) - Data: 00 02 00 00  returns 0x01 (0000ms, 0284ms total)
T0E00 016:163 JLINK_ReadMemU32(0xE0001048, 0x0001 Items, ...) -- CPU_ReadMem(4 bytes @ 0xE0001048) - Data: 00 00 00 00  returns 0x01 (0000ms, 0284ms total)
T0E00 016:163 JLINK_ReadMemU32(0xE0001058, 0x0001 Items, ...) -- CPU_ReadMem(4 bytes @ 0xE0001058) - Data: 00 00 00 00  returns 0x01 (0001ms, 0285ms total)
T0E00 016:164 JLINK_ReadReg(R0)  returns 0x00000000 (0000ms, 0285ms total)
T0E00 016:164 JLINK_ReadReg(R1)  returns 0x00000000 (0000ms, 0285ms total)
T0E00 016:164 JLINK_ReadReg(R2)  returns 0x00000020 (0000ms, 0285ms total)
T0E00 016:164 JLINK_ReadReg(R3)  returns 0x00000003 (0000ms, 0285ms total)
T0E00 016:164 JLINK_ReadReg(R4)  returns 0x20000018 (0000ms, 0285ms total)
T0E00 016:164 JLINK_ReadReg(R5)  returns 0x00000000 (0000ms, 0285ms total)
T0E00 016:164 JLINK_ReadReg(R6)  returns 0x00000000 (0000ms, 0285ms total)
T0E00 016:164 JLINK_ReadReg(R7)  returns 0x00000000 (0000ms, 0285ms total)
T0E00 016:164 JLINK_ReadReg(R8)  returns 0x00000000 (0000ms, 0285ms total)
T0E00 016:164 JLINK_ReadReg(R9)  returns 0x20000160 (0000ms, 0285ms total)
T0E00 016:164 JLINK_ReadReg(R10)  returns 0x00000000 (0000ms, 0285ms total)
T0E00 016:164 JLINK_ReadReg(R11)  returns 0x00000000 (0000ms, 0285ms total)
T0E00 016:164 JLINK_ReadReg(R12)  returns 0x0000000F (0000ms, 0285ms total)
T0E00 016:164 JLINK_ReadReg(R13 (SP))  returns 0x20003CA8 (0000ms, 0285ms total)
T0E00 016:164 JLINK_ReadReg(R14)  returns 0x08001C4D (0000ms, 0285ms total)
T0E00 016:164 JLINK_ReadReg(R15 (PC))  returns 0x08001C48 (0000ms, 0285ms total)
T0E00 016:164 JLINK_ReadReg(XPSR)  returns 0x81000000 (0000ms, 0285ms total)
T0E00 016:164 JLINK_ReadReg(MSP)  returns 0x20003CA8 (0000ms, 0285ms total)
T0E00 016:164 JLINK_ReadReg(PSP)  returns 0x20001000 (0000ms, 0285ms total)
T0E00 016:164 JLINK_ReadReg(CFBP)  returns 0x00000000 (0000ms, 0285ms total)
T2FE0 016:164 JLINK_ReadMemEx(0x00000000, 0x0002 Bytes, ..., Flags = 0x02000000) -- CPU_ReadMem(4 bytes @ 0x00000004) -- CPU_ReadMem(64 bytes @ 0x08000000) -- Updating C cache (64 bytes @ 0x08000000) -- Read from C cache (2 bytes @ 0x08000000) - Data: A8 3C  returns 0x02 (0001ms, 0286ms total)
T2FE0 016:165 JLINK_ReadMemU32(0xE0001004, 0x0001 Items, ...) -- CPU_ReadMem(4 bytes @ 0xE0001004) - Data: 89 A7 00 00  returns 0x01 (0001ms, 0287ms total)
T0E00 020:547 JLINK_ReadMemEx(0x08001C48, 0x0002 Bytes, ..., Flags = 0x02000000) -- CPU_ReadMem(64 bytes @ 0x08001C40) -- Updating C cache (64 bytes @ 0x08001C40) -- Read from C cache (2 bytes @ 0x08001C48) - Data: FF F7  returns 0x02 (0001ms, 0288ms total)
T0E00 020:548 JLINK_Step() -- Read from C cache (2 bytes @ 0x08001C48) -- Read from C cache (2 bytes @ 0x08001C4A) -- Simulated  returns 0x00 (0000ms, 0288ms total)
T0E00 020:548 JLINK_ReadReg(R15 (PC))  returns 0x08000C94 (0000ms, 0288ms total)
T0E00 020:548 JLINK_ReadReg(XPSR)  returns 0x81000000 (0000ms, 0288ms total)
T0E00 020:548 JLINK_SetBPEx(Addr = 0x08001C48, Type = 0xFFFFFFF2)  returns 0x00000005 (0000ms, 0288ms total)
T0E00 020:548 JLINK_SetBPEx(Addr = 0x08001C46, Type = 0xFFFFFFF2)  returns 0x00000006 (0000ms, 0288ms total)
T0E00 020:548 JLINK_Go() -- CPU_WriteMem(4 bytes @ 0xE0002000) -- CPU_WriteMem(4 bytes @ 0xE0002000) -- CPU_ReadMem(4 bytes @ 0xE0001000) -- CPU_WriteMem(4 bytes @ 0xE000200C) -- CPU_WriteMem(4 bytes @ 0xE0001004) (0003ms, 0291ms total)
T0E00 020:651 JLINK_IsHalted()  returns TRUE (0003ms, 0294ms total)
T0E00 020:654 JLINK_Halt()  returns 0x00 (0000ms, 0291ms total)
T0E00 020:654 JLINK_IsHalted()  returns TRUE (0000ms, 0291ms total)
T0E00 020:654 JLINK_IsHalted()  returns TRUE (0000ms, 0291ms total)
T0E00 020:654 JLINK_IsHalted()  returns TRUE (0000ms, 0291ms total)
T0E00 020:654 JLINK_ReadReg(R15 (PC))  returns 0x08001C48 (0000ms, 0291ms total)
T0E00 020:654 JLINK_ReadReg(XPSR)  returns 0x81000000 (0000ms, 0291ms total)
T0E00 020:654 JLINK_ClrBPEx(BPHandle = 0x00000005)  returns 0x00 (0000ms, 0291ms total)
T0E00 020:654 JLINK_ClrBPEx(BPHandle = 0x00000006)  returns 0x00 (0000ms, 0291ms total)
T0E00 020:654 JLINK_ReadMemU32(0xE000ED30, 0x0001 Items, ...) -- CPU_ReadMem(4 bytes @ 0xE000ED30) - Data: 02 00 00 00  returns 0x01 (0000ms, 0291ms total)
T0E00 020:654 JLINK_ReadMemU32(0xE0001028, 0x0001 Items, ...) -- CPU_ReadMem(4 bytes @ 0xE0001028) - Data: 00 00 00 00  returns 0x01 (0001ms, 0292ms total)
T0E00 020:655 JLINK_ReadMemU32(0xE0001038, 0x0001 Items, ...) -- CPU_ReadMem(4 bytes @ 0xE0001038) - Data: 00 02 00 00  returns 0x01 (0000ms, 0292ms total)
T0E00 020:655 JLINK_ReadMemU32(0xE0001048, 0x0001 Items, ...) -- CPU_ReadMem(4 bytes @ 0xE0001048) - Data: 00 00 00 00  returns 0x01 (0000ms, 0292ms total)
T0E00 020:655 JLINK_ReadMemU32(0xE0001058, 0x0001 Items, ...) -- CPU_ReadMem(4 bytes @ 0xE0001058) - Data: 00 00 00 00  returns 0x01 (0001ms, 0293ms total)
T0E00 020:656 JLINK_ReadReg(R0)  returns 0x00000000 (0000ms, 0293ms total)
T0E00 020:656 JLINK_ReadReg(R1)  returns 0x00000000 (0000ms, 0293ms total)
T0E00 020:656 JLINK_ReadReg(R2)  returns 0x00000020 (0000ms, 0293ms total)
T0E00 020:656 JLINK_ReadReg(R3)  returns 0x00000003 (0000ms, 0293ms total)
T0E00 020:656 JLINK_ReadReg(R4)  returns 0x20000018 (0000ms, 0293ms total)
T0E00 020:656 JLINK_ReadReg(R5)  returns 0x00000000 (0000ms, 0293ms total)
T0E00 020:656 JLINK_ReadReg(R6)  returns 0x00000000 (0000ms, 0293ms total)
T0E00 020:656 JLINK_ReadReg(R7)  returns 0x00000000 (0000ms, 0293ms total)
T0E00 020:656 JLINK_ReadReg(R8)  returns 0x00000000 (0000ms, 0293ms total)
T0E00 020:656 JLINK_ReadReg(R9)  returns 0x20000160 (0000ms, 0293ms total)
T0E00 020:656 JLINK_ReadReg(R10)  returns 0x00000000 (0000ms, 0293ms total)
T0E00 020:656 JLINK_ReadReg(R11)  returns 0x00000000 (0000ms, 0293ms total)
T0E00 020:656 JLINK_ReadReg(R12)  returns 0x0000000F (0000ms, 0293ms total)
T0E00 020:656 JLINK_ReadReg(R13 (SP))  returns 0x20003CA8 (0000ms, 0293ms total)
T0E00 020:656 JLINK_ReadReg(R14)  returns 0x08001C4D (0000ms, 0293ms total)
T0E00 020:656 JLINK_ReadReg(R15 (PC))  returns 0x08001C48 (0000ms, 0293ms total)
T0E00 020:656 JLINK_ReadReg(XPSR)  returns 0x81000000 (0000ms, 0293ms total)
T0E00 020:656 JLINK_ReadReg(MSP)  returns 0x20003CA8 (0000ms, 0293ms total)
T0E00 020:656 JLINK_ReadReg(PSP)  returns 0x20001000 (0000ms, 0293ms total)
T0E00 020:656 JLINK_ReadReg(CFBP)  returns 0x00000000 (0000ms, 0293ms total)
T2FE0 020:656 JLINK_ReadMemEx(0x00000000, 0x0002 Bytes, ..., Flags = 0x02000000) -- CPU_ReadMem(4 bytes @ 0x00000004) -- CPU_ReadMem(64 bytes @ 0x08000000) -- Updating C cache (64 bytes @ 0x08000000) -- Read from C cache (2 bytes @ 0x08000000) - Data: A8 3C  returns 0x02 (0001ms, 0294ms total)
T2FE0 020:657 JLINK_ReadMemU32(0xE0001004, 0x0001 Items, ...) -- CPU_ReadMem(4 bytes @ 0xE0001004) - Data: A9 A7 00 00  returns 0x01 (0001ms, 0295ms total)
T0E00 021:246 JLINK_ReadMemEx(0x08001C48, 0x0002 Bytes, ..., Flags = 0x02000000) -- CPU_ReadMem(64 bytes @ 0x08001C40) -- Updating C cache (64 bytes @ 0x08001C40) -- Read from C cache (2 bytes @ 0x08001C48) - Data: FF F7  returns 0x02 (0001ms, 0296ms total)
T0E00 021:247 JLINK_Step() -- Read from C cache (2 bytes @ 0x08001C48) -- Read from C cache (2 bytes @ 0x08001C4A) -- Simulated  returns 0x00 (0001ms, 0297ms total)
T0E00 021:248 JLINK_ReadReg(R15 (PC))  returns 0x08000C94 (0000ms, 0297ms total)
T0E00 021:248 JLINK_ReadReg(XPSR)  returns 0x81000000 (0000ms, 0297ms total)
T0E00 021:248 JLINK_SetBPEx(Addr = 0x08001C48, Type = 0xFFFFFFF2)  returns 0x00000007 (0000ms, 0297ms total)
T0E00 021:248 JLINK_SetBPEx(Addr = 0x08001C46, Type = 0xFFFFFFF2)  returns 0x00000008 (0000ms, 0297ms total)
T0E00 021:248 JLINK_Go() -- CPU_WriteMem(4 bytes @ 0xE0002000) -- CPU_WriteMem(4 bytes @ 0xE0002000) -- CPU_ReadMem(4 bytes @ 0xE0001000) -- CPU_WriteMem(4 bytes @ 0xE0001004) (0002ms, 0299ms total)
T0E00 021:350 JLINK_IsHalted()  returns TRUE (0003ms, 0302ms total)
T0E00 021:353 JLINK_Halt()  returns 0x00 (0000ms, 0299ms total)
T0E00 021:353 JLINK_IsHalted()  returns TRUE (0000ms, 0299ms total)
T0E00 021:353 JLINK_IsHalted()  returns TRUE (0000ms, 0299ms total)
T0E00 021:353 JLINK_IsHalted()  returns TRUE (0000ms, 0299ms total)
T0E00 021:353 JLINK_ReadReg(R15 (PC))  returns 0x08001C48 (0000ms, 0299ms total)
T0E00 021:353 JLINK_ReadReg(XPSR)  returns 0x81000000 (0000ms, 0299ms total)
T0E00 021:353 JLINK_ClrBPEx(BPHandle = 0x00000007)  returns 0x00 (0000ms, 0299ms total)
T0E00 021:353 JLINK_ClrBPEx(BPHandle = 0x00000008)  returns 0x00 (0000ms, 0299ms total)
T0E00 021:353 JLINK_ReadMemU32(0xE000ED30, 0x0001 Items, ...) -- CPU_ReadMem(4 bytes @ 0xE000ED30) - Data: 02 00 00 00  returns 0x01 (0000ms, 0299ms total)
T0E00 021:353 JLINK_ReadMemU32(0xE0001028, 0x0001 Items, ...) -- CPU_ReadMem(4 bytes @ 0xE0001028) - Data: 00 00 00 00  returns 0x01 (0001ms, 0300ms total)
T0E00 021:354 JLINK_ReadMemU32(0xE0001038, 0x0001 Items, ...) -- CPU_ReadMem(4 bytes @ 0xE0001038) - Data: 00 02 00 00  returns 0x01 (0000ms, 0300ms total)
T0E00 021:354 JLINK_ReadMemU32(0xE0001048, 0x0001 Items, ...) -- CPU_ReadMem(4 bytes @ 0xE0001048) - Data: 00 00 00 00  returns 0x01 (0000ms, 0300ms total)
T0E00 021:354 JLINK_ReadMemU32(0xE0001058, 0x0001 Items, ...) -- CPU_ReadMem(4 bytes @ 0xE0001058) - Data: 00 00 00 00  returns 0x01 (0001ms, 0301ms total)
T0E00 021:355 JLINK_ReadReg(R0)  returns 0x00000000 (0000ms, 0301ms total)
T0E00 021:355 JLINK_ReadReg(R1)  returns 0x00000000 (0000ms, 0301ms total)
T0E00 021:355 JLINK_ReadReg(R2)  returns 0x00000020 (0000ms, 0301ms total)
T0E00 021:355 JLINK_ReadReg(R3)  returns 0x00000003 (0000ms, 0301ms total)
T0E00 021:355 JLINK_ReadReg(R4)  returns 0x20000018 (0000ms, 0301ms total)
T0E00 021:355 JLINK_ReadReg(R5)  returns 0x00000000 (0000ms, 0301ms total)
T0E00 021:355 JLINK_ReadReg(R6)  returns 0x00000000 (0000ms, 0301ms total)
T0E00 021:355 JLINK_ReadReg(R7)  returns 0x00000000 (0000ms, 0301ms total)
T0E00 021:355 JLINK_ReadReg(R8)  returns 0x00000000 (0000ms, 0301ms total)
T0E00 021:355 JLINK_ReadReg(R9)  returns 0x20000160 (0000ms, 0301ms total)
T0E00 021:355 JLINK_ReadReg(R10)  returns 0x00000000 (0000ms, 0301ms total)
T0E00 021:355 JLINK_ReadReg(R11)  returns 0x00000000 (0000ms, 0301ms total)
T0E00 021:355 JLINK_ReadReg(R12)  returns 0x0000000F (0000ms, 0301ms total)
T0E00 021:355 JLINK_ReadReg(R13 (SP))  returns 0x20003CA8 (0000ms, 0301ms total)
T0E00 021:355 JLINK_ReadReg(R14)  returns 0x08001C4D (0000ms, 0301ms total)
T0E00 021:355 JLINK_ReadReg(R15 (PC))  returns 0x08001C48 (0000ms, 0301ms total)
T0E00 021:355 JLINK_ReadReg(XPSR)  returns 0x81000000 (0000ms, 0301ms total)
T0E00 021:355 JLINK_ReadReg(MSP)  returns 0x20003CA8 (0000ms, 0301ms total)
T0E00 021:355 JLINK_ReadReg(PSP)  returns 0x20001000 (0000ms, 0301ms total)
T0E00 021:355 JLINK_ReadReg(CFBP)  returns 0x00000000 (0000ms, 0301ms total)
T2FE0 021:355 JLINK_ReadMemEx(0x00000000, 0x0002 Bytes, ..., Flags = 0x02000000) -- CPU_ReadMem(4 bytes @ 0x00000004) -- CPU_ReadMem(64 bytes @ 0x08000000) -- Updating C cache (64 bytes @ 0x08000000) -- Read from C cache (2 bytes @ 0x08000000) - Data: A8 3C  returns 0x02 (0002ms, 0303ms total)
T2FE0 021:357 JLINK_ReadMemU32(0xE0001004, 0x0001 Items, ...) -- CPU_ReadMem(4 bytes @ 0xE0001004) - Data: C9 A7 00 00  returns 0x01 (0000ms, 0303ms total)
T0E00 022:416 JLINK_ReadMemEx(0x08001C48, 0x0002 Bytes, ..., Flags = 0x02000000) -- CPU_ReadMem(64 bytes @ 0x08001C40) -- Updating C cache (64 bytes @ 0x08001C40) -- Read from C cache (2 bytes @ 0x08001C48) - Data: FF F7  returns 0x02 (0000ms, 0303ms total)
T0E00 022:416 JLINK_Step() -- Read from C cache (2 bytes @ 0x08001C48) -- Read from C cache (2 bytes @ 0x08001C4A) -- Simulated  returns 0x00 (0001ms, 0304ms total)
T0E00 022:417 JLINK_ReadReg(R15 (PC))  returns 0x08000C94 (0000ms, 0304ms total)
T0E00 022:417 JLINK_ReadReg(XPSR)  returns 0x81000000 (0000ms, 0304ms total)
T0E00 022:417 JLINK_SetBPEx(Addr = 0x08001C48, Type = 0xFFFFFFF2)  returns 0x00000009 (0000ms, 0304ms total)
T0E00 022:417 JLINK_SetBPEx(Addr = 0x08001C46, Type = 0xFFFFFFF2)  returns 0x0000000A (0000ms, 0304ms total)
T0E00 022:417 JLINK_Go() -- CPU_WriteMem(4 bytes @ 0xE0002000) -- CPU_WriteMem(4 bytes @ 0xE0002000) -- CPU_ReadMem(4 bytes @ 0xE0001000) -- CPU_WriteMem(4 bytes @ 0xE0001004) (0002ms, 0306ms total)
T0E00 022:519 JLINK_IsHalted()  returns TRUE (0003ms, 0309ms total)
T0E00 022:522 JLINK_Halt()  returns 0x00 (0000ms, 0306ms total)
T0E00 022:522 JLINK_IsHalted()  returns TRUE (0000ms, 0306ms total)
T0E00 022:522 JLINK_IsHalted()  returns TRUE (0000ms, 0306ms total)
T0E00 022:522 JLINK_IsHalted()  returns TRUE (0000ms, 0306ms total)
T0E00 022:522 JLINK_ReadReg(R15 (PC))  returns 0x08001C48 (0000ms, 0306ms total)
T0E00 022:522 JLINK_ReadReg(XPSR)  returns 0x81000000 (0000ms, 0306ms total)
T0E00 022:522 JLINK_ClrBPEx(BPHandle = 0x00000009)  returns 0x00 (0000ms, 0306ms total)
T0E00 022:522 JLINK_ClrBPEx(BPHandle = 0x0000000A)  returns 0x00 (0000ms, 0306ms total)
T0E00 022:522 JLINK_ReadMemU32(0xE000ED30, 0x0001 Items, ...) -- CPU_ReadMem(4 bytes @ 0xE000ED30) - Data: 02 00 00 00  returns 0x01 (0000ms, 0306ms total)
T0E00 022:522 JLINK_ReadMemU32(0xE0001028, 0x0001 Items, ...) -- CPU_ReadMem(4 bytes @ 0xE0001028) - Data: 00 00 00 00  returns 0x01 (0001ms, 0307ms total)
T0E00 022:523 JLINK_ReadMemU32(0xE0001038, 0x0001 Items, ...) -- CPU_ReadMem(4 bytes @ 0xE0001038) - Data: 00 02 00 00  returns 0x01 (0000ms, 0307ms total)
T0E00 022:523 JLINK_ReadMemU32(0xE0001048, 0x0001 Items, ...) -- CPU_ReadMem(4 bytes @ 0xE0001048) - Data: 00 00 00 00  returns 0x01 (0000ms, 0307ms total)
T0E00 022:523 JLINK_ReadMemU32(0xE0001058, 0x0001 Items, ...) -- CPU_ReadMem(4 bytes @ 0xE0001058) - Data: 00 00 00 00  returns 0x01 (0001ms, 0308ms total)
T0E00 022:524 JLINK_ReadReg(R0)  returns 0x00000000 (0000ms, 0308ms total)
T0E00 022:524 JLINK_ReadReg(R1)  returns 0x00000000 (0000ms, 0308ms total)
T0E00 022:524 JLINK_ReadReg(R2)  returns 0x00000020 (0000ms, 0308ms total)
T0E00 022:524 JLINK_ReadReg(R3)  returns 0x00000003 (0000ms, 0308ms total)
T0E00 022:524 JLINK_ReadReg(R4)  returns 0x20000018 (0000ms, 0308ms total)
T0E00 022:524 JLINK_ReadReg(R5)  returns 0x00000000 (0000ms, 0308ms total)
T0E00 022:524 JLINK_ReadReg(R6)  returns 0x00000000 (0000ms, 0308ms total)
T0E00 022:524 JLINK_ReadReg(R7)  returns 0x00000000 (0000ms, 0308ms total)
T0E00 022:524 JLINK_ReadReg(R8)  returns 0x00000000 (0000ms, 0308ms total)
T0E00 022:524 JLINK_ReadReg(R9)  returns 0x20000160 (0000ms, 0308ms total)
T0E00 022:524 JLINK_ReadReg(R10)  returns 0x00000000 (0000ms, 0308ms total)
T0E00 022:524 JLINK_ReadReg(R11)  returns 0x00000000 (0000ms, 0308ms total)
T0E00 022:524 JLINK_ReadReg(R12)  returns 0x0000000F (0000ms, 0308ms total)
T0E00 022:524 JLINK_ReadReg(R13 (SP))  returns 0x20003CA8 (0000ms, 0308ms total)
T0E00 022:524 JLINK_ReadReg(R14)  returns 0x08001C4D (0000ms, 0308ms total)
T0E00 022:524 JLINK_ReadReg(R15 (PC))  returns 0x08001C48 (0000ms, 0308ms total)
T0E00 022:524 JLINK_ReadReg(XPSR)  returns 0x81000000 (0000ms, 0308ms total)
T0E00 022:524 JLINK_ReadReg(MSP)  returns 0x20003CA8 (0000ms, 0308ms total)
T0E00 022:524 JLINK_ReadReg(PSP)  returns 0x20001000 (0000ms, 0308ms total)
T0E00 022:524 JLINK_ReadReg(CFBP)  returns 0x00000000 (0000ms, 0308ms total)
T2FE0 022:524 JLINK_ReadMemEx(0x00000000, 0x0002 Bytes, ..., Flags = 0x02000000) -- CPU_ReadMem(4 bytes @ 0x00000004) -- CPU_ReadMem(64 bytes @ 0x08000000) -- Updating C cache (64 bytes @ 0x08000000) -- Read from C cache (2 bytes @ 0x08000000) - Data: A8 3C  returns 0x02 (0001ms, 0309ms total)
T2FE0 022:526 JLINK_ReadMemU32(0xE0001004, 0x0001 Items, ...) -- CPU_ReadMem(4 bytes @ 0xE0001004) - Data: E9 A7 00 00  returns 0x01 (0000ms, 0309ms total)
T0E00 023:008 JLINK_ReadMemEx(0x08001C48, 0x0002 Bytes, ..., Flags = 0x02000000) -- CPU_ReadMem(64 bytes @ 0x08001C40) -- Updating C cache (64 bytes @ 0x08001C40) -- Read from C cache (2 bytes @ 0x08001C48) - Data: FF F7  returns 0x02 (0001ms, 0310ms total)
T0E00 023:009 JLINK_Step() -- Read from C cache (2 bytes @ 0x08001C48) -- Read from C cache (2 bytes @ 0x08001C4A) -- Simulated  returns 0x00 (0000ms, 0310ms total)
T0E00 023:009 JLINK_ReadReg(R15 (PC))  returns 0x08000C94 (0000ms, 0310ms total)
T0E00 023:009 JLINK_ReadReg(XPSR)  returns 0x81000000 (0000ms, 0310ms total)
T0E00 023:009 JLINK_SetBPEx(Addr = 0x08001C48, Type = 0xFFFFFFF2)  returns 0x0000000B (0000ms, 0310ms total)
T0E00 023:009 JLINK_SetBPEx(Addr = 0x08001C46, Type = 0xFFFFFFF2)  returns 0x0000000C (0000ms, 0310ms total)
T0E00 023:009 JLINK_Go() -- CPU_WriteMem(4 bytes @ 0xE0002000) -- CPU_WriteMem(4 bytes @ 0xE0002000) -- CPU_ReadMem(4 bytes @ 0xE0001000) -- CPU_WriteMem(4 bytes @ 0xE0001004) (0003ms, 0313ms total)
T0E00 023:113 JLINK_IsHalted()  returns TRUE (0003ms, 0316ms total)
T0E00 023:116 JLINK_Halt()  returns 0x00 (0000ms, 0313ms total)
T0E00 023:116 JLINK_IsHalted()  returns TRUE (0000ms, 0313ms total)
T0E00 023:116 JLINK_IsHalted()  returns TRUE (0000ms, 0313ms total)
T0E00 023:116 JLINK_IsHalted()  returns TRUE (0000ms, 0313ms total)
T0E00 023:116 JLINK_ReadReg(R15 (PC))  returns 0x08001C48 (0000ms, 0313ms total)
T0E00 023:116 JLINK_ReadReg(XPSR)  returns 0x81000000 (0000ms, 0313ms total)
T0E00 023:116 JLINK_ClrBPEx(BPHandle = 0x0000000B)  returns 0x00 (0000ms, 0313ms total)
T0E00 023:116 JLINK_ClrBPEx(BPHandle = 0x0000000C)  returns 0x00 (0000ms, 0313ms total)
T0E00 023:116 JLINK_ReadMemU32(0xE000ED30, 0x0001 Items, ...) -- CPU_ReadMem(4 bytes @ 0xE000ED30) - Data: 02 00 00 00  returns 0x01 (0000ms, 0313ms total)
T0E00 023:116 JLINK_ReadMemU32(0xE0001028, 0x0001 Items, ...) -- CPU_ReadMem(4 bytes @ 0xE0001028) - Data: 00 00 00 00  returns 0x01 (0001ms, 0314ms total)
T0E00 023:117 JLINK_ReadMemU32(0xE0001038, 0x0001 Items, ...) -- CPU_ReadMem(4 bytes @ 0xE0001038) - Data: 00 02 00 00  returns 0x01 (0000ms, 0314ms total)
T0E00 023:117 JLINK_ReadMemU32(0xE0001048, 0x0001 Items, ...) -- CPU_ReadMem(4 bytes @ 0xE0001048) - Data: 00 00 00 00  returns 0x01 (0000ms, 0314ms total)
T0E00 023:117 JLINK_ReadMemU32(0xE0001058, 0x0001 Items, ...) -- CPU_ReadMem(4 bytes @ 0xE0001058) - Data: 00 00 00 00  returns 0x01 (0001ms, 0315ms total)
T0E00 023:118 JLINK_ReadReg(R0)  returns 0x00000000 (0000ms, 0315ms total)
T0E00 023:118 JLINK_ReadReg(R1)  returns 0x00000000 (0000ms, 0315ms total)
T0E00 023:118 JLINK_ReadReg(R2)  returns 0x00000020 (0000ms, 0315ms total)
T0E00 023:118 JLINK_ReadReg(R3)  returns 0x00000003 (0000ms, 0315ms total)
T0E00 023:118 JLINK_ReadReg(R4)  returns 0x20000018 (0000ms, 0315ms total)
T0E00 023:118 JLINK_ReadReg(R5)  returns 0x00000000 (0000ms, 0315ms total)
T0E00 023:118 JLINK_ReadReg(R6)  returns 0x00000000 (0000ms, 0315ms total)
T0E00 023:118 JLINK_ReadReg(R7)  returns 0x00000000 (0000ms, 0315ms total)
T0E00 023:118 JLINK_ReadReg(R8)  returns 0x00000000 (0000ms, 0315ms total)
T0E00 023:118 JLINK_ReadReg(R9)  returns 0x20000160 (0000ms, 0315ms total)
T0E00 023:118 JLINK_ReadReg(R10)  returns 0x00000000 (0000ms, 0315ms total)
T0E00 023:118 JLINK_ReadReg(R11)  returns 0x00000000 (0000ms, 0315ms total)
T0E00 023:118 JLINK_ReadReg(R12)  returns 0x0000000F (0000ms, 0315ms total)
T0E00 023:118 JLINK_ReadReg(R13 (SP))  returns 0x20003CA8 (0000ms, 0315ms total)
T0E00 023:118 JLINK_ReadReg(R14)  returns 0x08001C4D (0000ms, 0315ms total)
T0E00 023:118 JLINK_ReadReg(R15 (PC))  returns 0x08001C48 (0000ms, 0315ms total)
T0E00 023:118 JLINK_ReadReg(XPSR)  returns 0x81000000 (0000ms, 0315ms total)
T0E00 023:118 JLINK_ReadReg(MSP)  returns 0x20003CA8 (0000ms, 0315ms total)
T0E00 023:118 JLINK_ReadReg(PSP)  returns 0x20001000 (0000ms, 0315ms total)
T0E00 023:118 JLINK_ReadReg(CFBP)  returns 0x00000000 (0000ms, 0315ms total)
T2FE0 023:118 JLINK_ReadMemEx(0x00000000, 0x0002 Bytes, ..., Flags = 0x02000000) -- CPU_ReadMem(4 bytes @ 0x00000004) -- CPU_ReadMem(64 bytes @ 0x08000000) -- Updating C cache (64 bytes @ 0x08000000) -- Read from C cache (2 bytes @ 0x08000000) - Data: A8 3C  returns 0x02 (0001ms, 0316ms total)
T2FE0 023:119 JLINK_ReadMemU32(0xE0001004, 0x0001 Items, ...) -- CPU_ReadMem(4 bytes @ 0xE0001004) - Data: 09 A8 00 00  returns 0x01 (0001ms, 0317ms total)
T0E00 023:481 JLINK_ReadMemEx(0x08001C48, 0x0002 Bytes, ..., Flags = 0x02000000) -- CPU_ReadMem(64 bytes @ 0x08001C40) -- Updating C cache (64 bytes @ 0x08001C40) -- Read from C cache (2 bytes @ 0x08001C48) - Data: FF F7  returns 0x02 (0001ms, 0318ms total)
T0E00 023:482 JLINK_Step() -- Read from C cache (2 bytes @ 0x08001C48) -- Read from C cache (2 bytes @ 0x08001C4A) -- Simulated  returns 0x00 (0000ms, 0318ms total)
T0E00 023:482 JLINK_ReadReg(R15 (PC))  returns 0x08000C94 (0000ms, 0318ms total)
T0E00 023:482 JLINK_ReadReg(XPSR)  returns 0x81000000 (0000ms, 0318ms total)
T0E00 023:482 JLINK_SetBPEx(Addr = 0x08001C48, Type = 0xFFFFFFF2)  returns 0x0000000D (0000ms, 0318ms total)
T0E00 023:482 JLINK_SetBPEx(Addr = 0x08001C46, Type = 0xFFFFFFF2)  returns 0x0000000E (0000ms, 0318ms total)
T0E00 023:482 JLINK_Go() -- CPU_WriteMem(4 bytes @ 0xE0002000) -- CPU_WriteMem(4 bytes @ 0xE0002000) -- CPU_ReadMem(4 bytes @ 0xE0001000) -- CPU_WriteMem(4 bytes @ 0xE0001004) (0002ms, 0320ms total)
T0E00 023:584 JLINK_IsHalted()  returns TRUE (0003ms, 0323ms total)
T0E00 023:587 JLINK_Halt()  returns 0x00 (0000ms, 0320ms total)
T0E00 023:587 JLINK_IsHalted()  returns TRUE (0000ms, 0320ms total)
T0E00 023:587 JLINK_IsHalted()  returns TRUE (0000ms, 0320ms total)
T0E00 023:587 JLINK_IsHalted()  returns TRUE (0000ms, 0320ms total)
T0E00 023:587 JLINK_ReadReg(R15 (PC))  returns 0x08001C48 (0000ms, 0320ms total)
T0E00 023:587 JLINK_ReadReg(XPSR)  returns 0x81000000 (0000ms, 0320ms total)
T0E00 023:587 JLINK_ClrBPEx(BPHandle = 0x0000000D)  returns 0x00 (0000ms, 0320ms total)
T0E00 023:587 JLINK_ClrBPEx(BPHandle = 0x0000000E)  returns 0x00 (0000ms, 0320ms total)
T0E00 023:587 JLINK_ReadMemU32(0xE000ED30, 0x0001 Items, ...) -- CPU_ReadMem(4 bytes @ 0xE000ED30) - Data: 02 00 00 00  returns 0x01 (0000ms, 0320ms total)
T0E00 023:587 JLINK_ReadMemU32(0xE0001028, 0x0001 Items, ...) -- CPU_ReadMem(4 bytes @ 0xE0001028) - Data: 00 00 00 00  returns 0x01 (0001ms, 0321ms total)
T0E00 023:588 JLINK_ReadMemU32(0xE0001038, 0x0001 Items, ...) -- CPU_ReadMem(4 bytes @ 0xE0001038) - Data: 00 02 00 00  returns 0x01 (0000ms, 0321ms total)
T0E00 023:588 JLINK_ReadMemU32(0xE0001048, 0x0001 Items, ...) -- CPU_ReadMem(4 bytes @ 0xE0001048) - Data: 00 00 00 00  returns 0x01 (0001ms, 0322ms total)
T0E00 023:589 JLINK_ReadMemU32(0xE0001058, 0x0001 Items, ...) -- CPU_ReadMem(4 bytes @ 0xE0001058) - Data: 00 00 00 00  returns 0x01 (0000ms, 0322ms total)
T0E00 023:589 JLINK_ReadReg(R0)  returns 0x00000000 (0000ms, 0322ms total)
T0E00 023:589 JLINK_ReadReg(R1)  returns 0x00000000 (0000ms, 0322ms total)
T0E00 023:589 JLINK_ReadReg(R2)  returns 0x00000020 (0000ms, 0322ms total)
T0E00 023:589 JLINK_ReadReg(R3)  returns 0x00000003 (0000ms, 0322ms total)
T0E00 023:589 JLINK_ReadReg(R4)  returns 0x20000018 (0000ms, 0322ms total)
T0E00 023:589 JLINK_ReadReg(R5)  returns 0x00000000 (0000ms, 0322ms total)
T0E00 023:589 JLINK_ReadReg(R6)  returns 0x00000000 (0000ms, 0322ms total)
T0E00 023:589 JLINK_ReadReg(R7)  returns 0x00000000 (0000ms, 0322ms total)
T0E00 023:589 JLINK_ReadReg(R8)  returns 0x00000000 (0000ms, 0322ms total)
T0E00 023:589 JLINK_ReadReg(R9)  returns 0x20000160 (0000ms, 0322ms total)
T0E00 023:589 JLINK_ReadReg(R10)  returns 0x00000000 (0000ms, 0322ms total)
T0E00 023:589 JLINK_ReadReg(R11)  returns 0x00000000 (0000ms, 0322ms total)
T0E00 023:589 JLINK_ReadReg(R12)  returns 0x0000000F (0000ms, 0322ms total)
T0E00 023:589 JLINK_ReadReg(R13 (SP))  returns 0x20003CA8 (0000ms, 0322ms total)
